T57F8 000:010.928   SEGGER J-Link V7.92k Log File
T57F8 000:011.072   DLL Compiled: Oct 18 2023 14:58:31
T57F8 000:011.097   Logging started @ 2024-03-04 11:56
T57F8 000:011.120   Process: D:\Keil_5\UV4\UV4.exe
T57F8 000:011.147 - 11.143ms
T57F8 000:011.175 JLINK_SetWarnOutHandler(...)
T57F8 000:011.199 - 0.024ms
T57F8 000:011.223 JLINK_OpenEx(...)
T57F8 000:013.049   Firmware: J-Link V9 compiled May  7 2021 16:26:12
T57F8 000:013.467   Firmware: J-Link V9 compiled May  7 2021 16:26:12
T57F8 000:013.706   Decompressing FW timestamp took 146 us
T57F8 000:020.721   Hardware: V9.70
T57F8 000:020.794   S/N: 602712679
T57F8 000:020.859   OEM: SEGGER
T57F8 000:020.919   Feature(s): JFlash, FlashDL, FlashBP
T57F8 000:021.848   Bootloader: (Could not read)
T57F8 000:022.766   TELNET listener socket opened on port 19021
T57F8 000:022.873   WEBSRV WEBSRV_Init(): Starting webserver thread(s)
T57F8 000:023.036   WEBSRV Webserver running on local port 19080
T57F8 000:023.212   Looking for J-Link GUI Server exe at: D:\Keil_5\ARM\Segger\JLinkGUIServer.exe
T57F8 000:023.424   Looking for J-Link GUI Server exe at: D:\keil5mdk\JLink_V614b\\JLinkGUIServer.exe
T57F8 000:326.075   Failed to connect to J-Link GUI Server.
T57F8 000:326.172 - 314.925ms returns "O.K."
T57F8 000:326.225 JLINK_GetEmuCaps()
T57F8 000:326.594 - 0.320ms returns 0xB9FF7BBF
T57F8 000:326.673 JLINK_TIF_GetAvailable(...)
T57F8 000:327.077 - 0.403ms
T57F8 000:327.146 JLINK_SetErrorOutHandler(...)
T57F8 000:327.202 - 0.054ms
T57F8 000:327.346 JLINK_ExecCommand("ProjectFile = "D:\×ÀÃæ\gimbal_V\MDK-ARM\JLinkSettings.ini"", ...). 
T57F8 000:338.998   Ref file found at: D:\Keil_5\ARM\Segger\JLinkDevices.ref
T57F8 000:339.219   XML referenced by ref file: C:\Program Files (x86)\SEGGER\JLink_V614b\JLinkDevices.xml
T57F8 000:339.458   C:\Program Files (x86)\SEGGER\JLink_V614b\JLinkDevices.xml evaluated successfully.
T57F8 000:339.492     Device entry modified: ATSAMA5D27C
T57F8 000:339.617       ChipInfo:
T57F8 000:339.663         Script:          C:\Program Files (x86)\SEGGER\JLink_V614b\Devices\ATMEL\SAMA5D2.JLinkScript
T57F8 000:339.706       FlashBankInfo:
T57F8 000:339.748         Name:            QSPI Flash
T57F8 000:339.790         BaseAddr:        0xD0000000
T57F8 000:339.988         LoaderInfo:
T57F8 000:340.034           Name:            QSPI_Flash
T57F8 000:340.076           MaxSize:         0x02000000
T57F8 000:340.118           Loader:          C:\Program Files (x86)\SEGGER\JLink_V614b\Devices\ATMEL\SAMA5D2\SAMA5D2XPLAINED_QSPI.elf
T57F8 000:340.160           LoaderType:      FLASH_ALGO_TYPE_OPEN
T57F8 000:340.204     Device entry modified: CR600
T57F8 000:340.235       FlashBankInfo:
T57F8 000:340.277         Name:            QSPI flash
T57F8 000:340.319         BaseAddr:        0x20000000
T57F8 000:340.511         LoaderInfo:
T57F8 000:340.556           Name:            QSPI_flash
T57F8 000:340.598           MaxSize:         0x00040000
T57F8 000:340.640           Loader:          C:\Program Files (x86)\SEGGER\JLink_V614b\Devices\ClouderSemi\CR600\CR600.FLM
T57F8 000:340.682           LoaderType:      FLASH_ALGO_TYPE_OPEN
T57F8 000:340.726     Device entry modified: MCIMX6X1_A9
T57F8 000:340.843       ChipInfo:
T57F8 000:340.888         Script:          C:\Program Files (x86)\SEGGER\JLink_V614b\Devices\NXP\iMX6SoloX_Connect_CortexA9.JLinkScript
T57F8 000:340.932     Device entry modified: MCIMX6X1_M4
T57F8 000:341.032       ChipInfo:
T57F8 000:341.077         Script:          C:\Program Files (x86)\SEGGER\JLink_V614b\Devices\NXP\iMX6SoloX_Connect_CortexM4.JLinkScript
T57F8 000:341.121     Device entry modified: MCIMX6X2_A9
T57F8 000:341.218       ChipInfo:
T57F8 000:341.262         Script:          C:\Program Files (x86)\SEGGER\JLink_V614b\Devices\NXP\iMX6SoloX_Connect_CortexA9.JLinkScript
T57F8 000:341.306     Device entry modified: MCIMX6X2_M4
T57F8 000:341.406       ChipInfo:
T57F8 000:341.458         Script:          C:\Program Files (x86)\SEGGER\JLink_V614b\Devices\NXP\iMX6SoloX_Connect_CortexM4.JLinkScript
T57F8 000:341.501     Device entry modified: MCIMX6X3_A9
T57F8 000:341.770       ChipInfo:
T57F8 000:341.826         Script:          C:\Program Files (x86)\SEGGER\JLink_V614b\Devices\NXP\iMX6SoloX_Connect_CortexA9.JLinkScript
T57F8 000:341.876     Device entry modified: MCIMX6X3_M4
T57F8 000:341.989       ChipInfo:
T57F8 000:342.034         Script:          C:\Program Files (x86)\SEGGER\JLink_V614b\Devices\NXP\iMX6SoloX_Connect_CortexM4.JLinkScript
T57F8 000:342.078     Device entry modified: MCIMX6X4_A9
T57F8 000:342.176       ChipInfo:
T57F8 000:342.221         Script:          C:\Program Files (x86)\SEGGER\JLink_V614b\Devices\NXP\iMX6SoloX_Connect_CortexA9.JLinkScript
T57F8 000:342.270     Device entry modified: MCIMX6X4_M4
T57F8 000:342.369       ChipInfo:
T57F8 000:342.410         Script:          C:\Program Files (x86)\SEGGER\JLink_V614b\Devices\NXP\iMX6SoloX_Connect_CortexM4.JLinkScript
T57F8 000:342.450     Device entry modified: MCIMX6G0
T57F8 000:342.477       FlashBankInfo:
T57F8 000:342.515         Name:            QSPI flash
T57F8 000:342.553         BaseAddr:        0x60000000
T57F8 000:342.734         LoaderInfo:
T57F8 000:342.777           Name:            QSPI_flash
T57F8 000:342.815           MaxSize:         0x02000000
T57F8 000:342.853           Loader:          C:\Program Files (x86)\SEGGER\JLink_V614b\Devices\NXP\iMX6UL\NXP_iMX6UL_EVK_QSPI.elf
T57F8 000:342.891           LoaderType:      FLASH_ALGO_TYPE_OPEN
T57F8 000:342.929     Device entry modified: MCIMX6G1
T57F8 000:342.956       FlashBankInfo:
T57F8 000:342.994         Name:            QSPI flash
T57F8 000:343.032         BaseAddr:        0x60000000
T57F8 000:343.196         LoaderInfo:
T57F8 000:343.237           Name:            QSPI_flash
T57F8 000:343.275           MaxSize:         0x02000000
T57F8 000:343.312           Loader:          C:\Program Files (x86)\SEGGER\JLink_V614b\Devices\NXP\iMX6UL\NXP_iMX6UL_EVK_QSPI.elf
T57F8 000:343.350           LoaderType:      FLASH_ALGO_TYPE_OPEN
T57F8 000:343.386     Device entry modified: MCIMX6G2
T57F8 000:343.411       FlashBankInfo:
T57F8 000:343.450         Name:            QSPI flash
T57F8 000:343.485         BaseAddr:        0x60000000
T57F8 000:343.638         LoaderInfo:
T57F8 000:343.676           Name:            QSPI_flash
T57F8 000:343.712           MaxSize:         0x02000000
T57F8 000:343.747           Loader:          C:\Program Files (x86)\SEGGER\JLink_V614b\Devices\NXP\iMX6UL\NXP_iMX6UL_EVK_QSPI.elf
T57F8 000:343.782           LoaderType:      FLASH_ALGO_TYPE_OPEN
T57F8 000:343.819     Device entry modified: MCIMX6G3
T57F8 000:343.843       FlashBankInfo:
T57F8 000:343.878         Name:            QSPI flash
T57F8 000:343.916         BaseAddr:        0x60000000
T57F8 000:344.075         LoaderInfo:
T57F8 000:344.113           Name:            QSPI_flash
T57F8 000:344.148           MaxSize:         0x02000000
T57F8 000:344.183           Loader:          C:\Program Files (x86)\SEGGER\JLink_V614b\Devices\NXP\iMX6UL\NXP_iMX6UL_EVK_QSPI.elf
T57F8 000:344.218           LoaderType:      FLASH_ALGO_TYPE_OPEN
T57F8 000:344.255     Device entry modified: MCIMX6Y0
T57F8 000:344.279       FlashBankInfo:
T57F8 000:344.314         Name:            QSPI flash
T57F8 000:344.350         BaseAddr:        0x60000000
T57F8 000:344.505         LoaderInfo:
T57F8 000:344.543           Name:            QSPI_flash
T57F8 000:344.578           MaxSize:         0x02000000
T57F8 000:344.614           Loader:          C:\Program Files (x86)\SEGGER\JLink_V614b\Devices\NXP\iMX6UL\NXP_iMX6UL_EVK_QSPI.elf
T57F8 000:344.649           LoaderType:      FLASH_ALGO_TYPE_OPEN
T57F8 000:344.685     Device entry modified: MCIMX6Y1
T57F8 000:344.710       FlashBankInfo:
T57F8 000:344.745         Name:            QSPI flash
T57F8 000:344.780         BaseAddr:        0x60000000
T57F8 000:344.928         LoaderInfo:
T57F8 000:344.966           Name:            QSPI_flash
T57F8 000:345.001           MaxSize:         0x02000000
T57F8 000:345.037           Loader:          C:\Program Files (x86)\SEGGER\JLink_V614b\Devices\NXP\iMX6UL\NXP_iMX6UL_EVK_QSPI.elf
T57F8 000:345.074           LoaderType:      FLASH_ALGO_TYPE_OPEN
T57F8 000:345.112     Device entry modified: MCIMX6Y2
T57F8 000:345.137       FlashBankInfo:
T57F8 000:345.172         Name:            QSPI flash
T57F8 000:345.207         BaseAddr:        0x60000000
T57F8 000:345.359         LoaderInfo:
T57F8 000:345.397           Name:            QSPI_flash
T57F8 000:345.433           MaxSize:         0x02000000
T57F8 000:345.468           Loader:          C:\Program Files (x86)\SEGGER\JLink_V614b\Devices\NXP\iMX6UL\NXP_iMX6UL_EVK_QSPI.elf
T57F8 000:345.504           LoaderType:      FLASH_ALGO_TYPE_OPEN
T57F8 000:345.540     Device entry modified: MCIMX6Y7
T57F8 000:345.565       FlashBankInfo:
T57F8 000:345.600         Name:            QSPI flash
T57F8 000:345.635         BaseAddr:        0x60000000
T57F8 000:345.783         LoaderInfo:
T57F8 000:345.821           Name:            QSPI_flash
T57F8 000:345.856           MaxSize:         0x02000000
T57F8 000:345.891           Loader:          C:\Program Files (x86)\SEGGER\JLink_V614b\Devices\NXP\iMX6UL\NXP_iMX6UL_EVK_QSPI.elf
T57F8 000:345.926           LoaderType:      FLASH_ALGO_TYPE_OPEN
T57F8 000:345.964     Device entry modified: CC3200
T57F8 000:346.072       ChipInfo:
T57F8 000:346.111         Script:          C:\Program Files (x86)\SEGGER\JLink_V614b\Devices\TI\TI_CC3200.JLinkScript
T57F8 000:346.148     Device entry modified: BCM43907
T57F8 000:346.234       ChipInfo:
T57F8 000:346.273         Script:          C:\Program Files (x86)\SEGGER\JLink_V614b\Devices\Broadcom\BCM45907.JLinkScript
T57F8 000:346.433 - 19.089ms returns 0x00
T57F8 000:346.483 JLINK_ExecCommand("Device = STM32F407IGHx", ...). 
T57F8 000:346.935   Device "STM32F407IG" selected.
T57F8 000:347.352 - 0.842ms returns 0x00
T57F8 000:347.383 JLINK_ExecCommand("DisableConnectionTimeout", ...). 
T57F8 000:347.410 - 0.001ms returns 0x01
T57F8 000:347.435 JLINK_GetHardwareVersion()
T57F8 000:347.459 - 0.023ms returns 97000
T57F8 000:347.490 JLINK_GetDLLVersion()
T57F8 000:347.514 - 0.023ms returns 79211
T57F8 000:347.539 JLINK_GetOEMString(...)
T57F8 000:347.564 JLINK_GetFirmwareString(...)
T57F8 000:347.587 - 0.023ms
T57F8 000:347.624 JLINK_GetDLLVersion()
T57F8 000:347.648 - 0.023ms returns 79211
T57F8 000:347.673 JLINK_GetCompileDateTime()
T57F8 000:347.697 - 0.023ms
T57F8 000:347.725 JLINK_GetFirmwareString(...)
T57F8 000:347.749 - 0.023ms
T57F8 000:347.776 JLINK_GetHardwareVersion()
T57F8 000:347.800 - 0.023ms returns 97000
T57F8 000:347.827 JLINK_GetSN()
T57F8 000:347.852 - 0.024ms returns 602712679
T57F8 000:347.879 JLINK_GetOEMString(...)
T57F8 000:347.910 JLINK_TIF_Select(JLINKARM_TIF_SWD)
T57F8 000:349.072 - 1.161ms returns 0x00
T57F8 000:349.129 JLINK_HasError()
T57F8 000:349.194 JLINK_SetSpeed(5000)
T57F8 000:349.577 - 0.384ms
T57F8 000:349.635 JLINK_GetId()
T57F8 000:349.920   InitTarget() start
T57F8 000:349.993    J-Link Script File: Executing InitTarget()
T57F8 000:350.241   SWD selected. Executing JTAG -> SWD switching sequence.
T57F8 000:352.139   DAP initialized successfully.
T57F8 000:357.509   InitTarget() end - Took 7.50ms
T57F8 000:358.145   Found SW-DP with ID 0x2BA01477
T57F8 000:360.301   DPIDR: 0x2BA01477
T57F8 000:360.376   CoreSight SoC-400 or earlier
T57F8 000:360.444   Scanning AP map to find all available APs
T57F8 000:361.064   AP[1]: Stopped AP scan as end of AP map has been reached
T57F8 000:361.144   AP[0]: AHB-AP (IDR: 0x24770011)
T57F8 000:361.210   Iterating through AP map to find AHB-AP to use
T57F8 000:362.080   AP[0]: Core found
T57F8 000:362.135   AP[0]: AHB-AP ROM base: 0xE00FF000
T57F8 000:362.543   CPUID register: 0x410FC241. Implementer code: 0x41 (ARM)
T57F8 000:362.593   Found Cortex-M4 r0p1, Little endian.
T57F8 000:363.084   -- Max. mem block: 0x00010E60
T57F8 000:363.731   CPU_ReadMem(4 bytes @ 0xE000EDF0)
T57F8 000:364.059   CPU_ReadMem(4 bytes @ 0xE0002000)
T57F8 000:364.442   FPUnit: 6 code (BP) slots and 2 literal slots
T57F8 000:364.488   CPU_ReadMem(4 bytes @ 0xE000EDFC)
T57F8 000:364.816   CPU_WriteMem(4 bytes @ 0xE000EDFC)
T57F8 000:365.202   CPU_ReadMem(4 bytes @ 0xE0001000)
T57F8 000:365.513   CPU_WriteMem(4 bytes @ 0xE0001000)
T57F8 000:365.819   CPU_ReadMem(4 bytes @ 0xE000ED88)
T57F8 000:366.186   CPU_WriteMem(4 bytes @ 0xE000ED88)
T57F8 000:366.572   CPU_ReadMem(4 bytes @ 0xE000ED88)
T57F8 000:366.939   CPU_WriteMem(4 bytes @ 0xE000ED88)
T57F8 000:367.337   CoreSight components:
T57F8 000:367.391   ROMTbl[0] @ E00FF000
T57F8 000:367.434   CPU_ReadMem(64 bytes @ 0xE00FF000)
T57F8 000:368.016   CPU_ReadMem(32 bytes @ 0xE000EFE0)
T57F8 000:368.438   [0][0]: E000E000 CID B105E00D PID 000BB00C SCS-M7
T57F8 000:368.483   CPU_ReadMem(32 bytes @ 0xE0001FE0)
T57F8 000:368.930   [0][1]: E0001000 CID B105E00D PID 003BB002 DWT
T57F8 000:368.975   CPU_ReadMem(32 bytes @ 0xE0002FE0)
T57F8 000:369.437   [0][2]: E0002000 CID B105E00D PID 002BB003 FPB
T57F8 000:369.482   CPU_ReadMem(32 bytes @ 0xE0000FE0)
T57F8 000:369.937   [0][3]: E0000000 CID B105E00D PID 003BB001 ITM
T57F8 000:369.998   CPU_ReadMem(32 bytes @ 0xE0040FE0)
T57F8 000:370.438   [0][4]: E0040000 CID B105900D PID 000BB9A1 TPIU
T57F8 000:370.482   CPU_ReadMem(32 bytes @ 0xE0041FE0)
T57F8 000:370.928   [0][5]: E0041000 CID B105900D PID 000BB925 ETM
T57F8 000:371.255 - 21.619ms returns 0x2BA01477
T57F8 000:371.296 JLINK_GetDLLVersion()
T57F8 000:371.324 - 0.028ms returns 79211
T57F8 000:371.355 JLINK_CORE_GetFound()
T57F8 000:371.384 - 0.028ms returns 0xE0000FF
T57F8 000:371.447 JLINK_GetDebugInfo(0x100 = JLINKARM_ROM_TABLE_ADDR_INDEX)
T57F8 000:371.485   Value=0xE00FF000
T57F8 000:371.530 - 0.083ms returns 0
T57F8 000:371.568 JLINK_GetDebugInfo(0x100 = JLINKARM_ROM_TABLE_ADDR_INDEX)
T57F8 000:371.596   Value=0xE00FF000
T57F8 000:371.638 - 0.070ms returns 0
T57F8 000:371.667 JLINK_GetDebugInfo(0x101 = JLINKARM_DEBUG_INFO_ETM_ADDR_INDEX)
T57F8 000:371.695   Value=0xE0041000
T57F8 000:371.737 - 0.069ms returns 0
T57F8 000:371.768 JLINK_ReadMemEx(0xE0041FD0, 0x20 Bytes, Flags = 0x02000004)
T57F8 000:371.824   CPU_ReadMem(32 bytes @ 0xE0041FD0)
T57F8 000:372.315   Data:  04 00 00 00 00 00 00 00 00 00 00 00 00 00 00 00 ...
T57F8 000:372.392 - 0.623ms returns 32 (0x20)
T57F8 000:372.438 JLINK_GetDebugInfo(0x102 = JLINKARM_DEBUG_INFO_MTB_ADDR_INDEX)
T57F8 000:372.479   Value=0x00000000
T57F8 000:372.539 - 0.101ms returns 0
T57F8 000:372.581 JLINK_GetDebugInfo(0x103 = JLINKARM_DEBUG_INFO_TPIU_ADDR_INDEX)
T57F8 000:372.621   Value=0xE0040000
T57F8 000:372.681 - 0.100ms returns 0
T57F8 000:372.727 JLINK_GetDebugInfo(0x104 = JLINKARM_DEBUG_INFO_ITM_ADDR_INDEX)
T57F8 000:372.767   Value=0xE0000000
T57F8 000:372.826 - 0.099ms returns 0
T57F8 000:372.869 JLINK_GetDebugInfo(0x105 = JLINKARM_DEBUG_INFO_DWT_ADDR_INDEX)
T57F8 000:372.909   Value=0xE0001000
T57F8 000:372.968 - 0.099ms returns 0
T57F8 000:373.010 JLINK_GetDebugInfo(0x106 = JLINKARM_DEBUG_INFO_FPB_ADDR_INDEX)
T57F8 000:373.050   Value=0xE0002000
T57F8 000:373.110 - 0.099ms returns 0
T57F8 000:373.152 JLINK_GetDebugInfo(0x107 = JLINKARM_DEBUG_INFO_NVIC_ADDR_INDEX)
T57F8 000:373.192   Value=0xE000E000
T57F8 000:373.251 - 0.099ms returns 0
T57F8 000:373.303 JLINK_GetDebugInfo(0x10C = JLINKARM_DEBUG_INFO_DBG_ADDR_INDEX)
T57F8 000:373.348   Value=0xE000EDF0
T57F8 000:373.408 - 0.105ms returns 0
T57F8 000:373.615 JLINK_GetDebugInfo(0x01 = Unknown)
T57F8 000:373.643   Value=0x00000001
T57F8 000:373.687 - 0.248ms returns 0
T57F8 000:373.717 JLINK_ReadMemU32(0xE000ED00, 0x1 Items)
T57F8 000:373.754   CPU_ReadMem(4 bytes @ 0xE000ED00)
T57F8 000:374.071   Data:  41 C2 0F 41
T57F8 000:374.133   Debug reg: CPUID
T57F8 000:374.185 - 0.467ms returns 1 (0x1)
T57F8 000:374.224 JLINK_GetDebugInfo(0x10F = JLINKARM_DEBUG_INFO_HAS_CORTEX_M_SECURITY_EXT_INDEX)
T57F8 000:374.259   Value=0x00000000
T57F8 000:374.311 - 0.087ms returns 0
T57F8 000:374.344 JLINK_HasError()
T57F8 000:374.374 JLINK_SetResetType(JLINKARM_CM3_RESET_TYPE_NORMAL)
T57F8 000:374.402 - 0.028ms returns JLINKARM_CM3_RESET_TYPE_NORMAL
T57F8 000:374.475 JLINK_Reset()
T57F8 000:374.521   CPU is running
T57F8 000:374.565   CPU_WriteMem(4 bytes @ 0xE000EDF0)
T57F8 000:374.942   CPU is running
T57F8 000:374.987   CPU_WriteMem(4 bytes @ 0xE000EDFC)
T57F8 000:375.273   Reset: Halt core after reset via DEMCR.VC_CORERESET.
T57F8 000:375.757   Reset: Reset device via AIRCR.SYSRESETREQ.
T57F8 000:375.805   CPU is running
T57F8 000:375.848   CPU_WriteMem(4 bytes @ 0xE000ED0C)
T57F8 000:428.646   CPU_ReadMem(4 bytes @ 0xE000EDF0)
T57F8 000:429.065   CPU_ReadMem(4 bytes @ 0xE000EDF0)
T57F8 000:431.545   CPU_WriteMem(4 bytes @ 0xE000EDFC)
T57F8 000:437.533   CPU_ReadMem(4 bytes @ 0xE000EDF0)
T57F8 000:439.922   CPU_WriteMem(4 bytes @ 0xE0002000)
T57F8 000:440.331   CPU_ReadMem(4 bytes @ 0xE000EDFC)
T57F8 000:440.687   CPU_ReadMem(4 bytes @ 0xE0001000)
T57F8 000:441.069 - 66.593ms
T57F8 000:441.160 JLINK_HasError()
T57F8 000:441.204 JLINK_ReadReg(R15 (PC))
T57F8 000:441.236 - 0.041ms returns 0x0800019C
T57F8 000:441.267 JLINK_ReadReg(XPSR)
T57F8 000:441.295 - 0.028ms returns 0x01000000
T57F8 000:441.326 JLINK_Halt()
T57F8 000:441.354 - 0.028ms returns 0x00
T57F8 000:441.385 JLINK_ReadMemU32(0xE000EDF0, 0x1 Items)
T57F8 000:441.417   CPU_ReadMem(4 bytes @ 0xE000EDF0)
T57F8 000:441.813   Data:  03 00 03 00
T57F8 000:441.858   Debug reg: DHCSR
T57F8 000:441.899 - 0.515ms returns 1 (0x1)
T57F8 000:441.934 JLINK_WriteU32_64(0xE000EDF0, 0xA05F0003)
T57F8 000:441.962   Debug reg: DHCSR
T57F8 000:442.188   CPU_WriteMem(4 bytes @ 0xE000EDF0)
T57F8 000:442.582 - 0.650ms returns 0 (0x00000000)
T57F8 000:442.630 JLINK_WriteU32_64(0xE000EDFC, 0x01000000)
T57F8 000:442.670   Debug reg: DEMCR
T57F8 000:442.735   CPU_WriteMem(4 bytes @ 0xE000EDFC)
T57F8 000:443.080 - 0.450ms returns 0 (0x00000000)
T57F8 000:443.166 JLINK_GetHWStatus(...)
T57F8 000:443.473 - 0.306ms returns 0
T57F8 000:443.540 JLINK_GetNumBPUnits(Type = 0xFFFFFF00)
T57F8 000:443.568 - 0.028ms returns 0x06
T57F8 000:443.598 JLINK_GetNumBPUnits(Type = 0xF0)
T57F8 000:443.626 - 0.027ms returns 0x2000
T57F8 000:443.655 JLINK_GetNumWPUnits()
T57F8 000:443.682 - 0.027ms returns 4
T57F8 000:443.721 JLINK_GetSpeed()
T57F8 000:443.750 - 0.028ms returns 4000
T57F8 000:443.785 JLINK_ReadMemU32(0xE000E004, 0x1 Items)
T57F8 000:443.816   CPU_ReadMem(4 bytes @ 0xE000E004)
T57F8 000:444.185   Data:  02 00 00 00
T57F8 000:444.230 - 0.445ms returns 1 (0x1)
T57F8 000:444.260 JLINK_ReadMemU32(0xE000E004, 0x1 Items)
T57F8 000:444.290   CPU_ReadMem(4 bytes @ 0xE000E004)
T57F8 000:444.683   Data:  02 00 00 00
T57F8 000:444.726 - 0.465ms returns 1 (0x1)
T57F8 000:444.757 JLINK_WriteMemEx(0xE0001000, 0x0000001C Bytes, Flags = 0x02000004)
T57F8 000:444.785   Data:  01 00 00 00 00 00 00 00 00 00 00 00 00 00 00 00 ...
T57F8 000:444.830   CPU_WriteMem(28 bytes @ 0xE0001000)
T57F8 000:445.278 - 0.521ms returns 0x1C
T57F8 000:445.323 JLINK_HasError()
T57F8 000:445.360 JLINK_ReadReg(R15 (PC))
T57F8 000:445.398 - 0.038ms returns 0x0800019C
T57F8 000:445.440 JLINK_ReadReg(XPSR)
T57F8 000:445.483 - 0.043ms returns 0x01000000
T57F8 000:449.662 JLINK_ReadMemEx(0xE0001004, 0x4 Bytes, Flags = 0x02000000)
T57F8 000:449.702   Data:  00 00 00 00
T57F8 000:449.744   Debug reg: DWT_CYCCNT
T57F8 000:449.786 - 0.125ms returns 4 (0x4)
T57F8 000:994.947 JLINK_HasError()
T57F8 000:995.001 JLINK_SetResetType(JLINKARM_CM3_RESET_TYPE_NORMAL)
T57F8 000:995.031 - 0.029ms returns JLINKARM_CM3_RESET_TYPE_NORMAL
T57F8 000:995.062 JLINK_Reset()
T57F8 000:995.105   CPU_WriteMem(4 bytes @ 0xE000EDF0)
T57F8 000:995.502   CPU_WriteMem(4 bytes @ 0xE000EDFC)
T57F8 000:996.044   Reset: Halt core after reset via DEMCR.VC_CORERESET.
T57F8 000:996.636   Reset: Reset device via AIRCR.SYSRESETREQ.
T57F8 000:996.685   CPU_WriteMem(4 bytes @ 0xE000ED0C)
T57F8 001:050.021   CPU_ReadMem(4 bytes @ 0xE000EDF0)
T57F8 001:050.437   CPU_ReadMem(4 bytes @ 0xE000EDF0)
T57F8 001:051.058   CPU_WriteMem(4 bytes @ 0xE000EDFC)
T57F8 001:056.625   CPU_ReadMem(4 bytes @ 0xE000EDF0)
T57F8 001:059.183   CPU_WriteMem(4 bytes @ 0xE0002000)
T57F8 001:059.536   CPU_ReadMem(4 bytes @ 0xE000EDFC)
T57F8 001:059.859   CPU_ReadMem(4 bytes @ 0xE0001000)
T57F8 001:060.197 - 65.134ms
T57F8 001:060.302 JLINK_HasError()
T57F8 001:060.350 JLINK_ReadReg(R15 (PC))
T57F8 001:060.396 - 0.045ms returns 0x0800019C
T57F8 001:060.439 JLINK_ReadReg(XPSR)
T57F8 001:060.480 - 0.041ms returns 0x01000000
T57F8 001:061.034 JLINK_ReadMemEx(0x08000188, 0x3C Bytes, Flags = 0x02000000)
T57F8 001:061.092   CPU_ReadMem(128 bytes @ 0x08000180)
T57F8 001:061.926    -- Updating C cache (128 bytes @ 0x08000180)
T57F8 001:061.971    -- Read from C cache (60 bytes @ 0x08000188)
T57F8 001:062.020   Data:  DF F8 0C D0 00 F0 4A F9 00 48 00 47 D5 9E 00 08 ...
T57F8 001:062.063 - 1.028ms returns 60 (0x3C)
T57F8 001:062.095 JLINK_ReadMemEx(0x08000188, 0x2 Bytes, Flags = 0x02000000)
T57F8 001:062.124    -- Read from C cache (2 bytes @ 0x08000188)
T57F8 001:062.166   Data:  DF F8
T57F8 001:062.208 - 0.113ms returns 2 (0x2)
T57F8 001:062.311 JLINK_ReadMemEx(0x0800018A, 0x2 Bytes, Flags = 0x02000000)
T57F8 001:062.341    -- Read from C cache (2 bytes @ 0x0800018A)
T57F8 001:062.385   Data:  0C D0
T57F8 001:062.426 - 0.115ms returns 2 (0x2)
T57F8 001:062.460 JLINK_ReadMemEx(0x0800018C, 0x3C Bytes, Flags = 0x02000000)
T57F8 001:062.489    -- Read from C cache (60 bytes @ 0x0800018C)
T57F8 001:062.531   Data:  00 F0 4A F9 00 48 00 47 D5 9E 00 08 78 10 00 20 ...
T57F8 001:062.573 - 0.112ms returns 60 (0x3C)
T57F8 001:062.602 JLINK_ReadMemEx(0x0800018C, 0x2 Bytes, Flags = 0x02000000)
T57F8 001:062.631    -- Read from C cache (2 bytes @ 0x0800018C)
T57F8 001:062.672   Data:  00 F0
T57F8 001:062.714 - 0.111ms returns 2 (0x2)
T57F8 001:062.743 JLINK_ReadMemEx(0x0800018E, 0x2 Bytes, Flags = 0x02000000)
T57F8 001:062.771    -- Read from C cache (2 bytes @ 0x0800018E)
T57F8 001:062.813   Data:  4A F9
T57F8 001:062.855 - 0.111ms returns 2 (0x2)
T57F8 001:062.886 JLINK_ReadMemEx(0x08000190, 0x3C Bytes, Flags = 0x02000000)
T57F8 001:062.915    -- Read from C cache (60 bytes @ 0x08000190)
T57F8 001:062.956   Data:  00 48 00 47 D5 9E 00 08 78 10 00 20 06 48 80 47 ...
T57F8 001:062.998 - 0.111ms returns 60 (0x3C)
T57F8 001:063.028 JLINK_ReadMemEx(0x08000190, 0x2 Bytes, Flags = 0x02000000)
T57F8 001:063.056    -- Read from C cache (2 bytes @ 0x08000190)
T57F8 001:063.097   Data:  00 48
T57F8 001:063.139 - 0.111ms returns 2 (0x2)
T57F8 001:063.169 JLINK_ReadMemEx(0x08000192, 0x2 Bytes, Flags = 0x02000000)
T57F8 001:063.197    -- Read from C cache (2 bytes @ 0x08000192)
T57F8 001:063.238   Data:  00 47
T57F8 001:063.280 - 0.111ms returns 2 (0x2)
T57F8 001:063.310 JLINK_ReadMemEx(0x08000192, 0x2 Bytes, Flags = 0x02000000)
T57F8 001:063.344    -- Read from C cache (2 bytes @ 0x08000192)
T57F8 001:063.393   Data:  00 47
T57F8 001:063.435 - 0.125ms returns 2 (0x2)
T57F8 001:063.468 JLINK_ReadMemEx(0x08000194, 0x3C Bytes, Flags = 0x02000000)
T57F8 001:063.496    -- Read from C cache (60 bytes @ 0x08000194)
T57F8 001:063.538   Data:  D5 9E 00 08 78 10 00 20 06 48 80 47 06 48 00 47 ...
T57F8 001:063.580 - 0.111ms returns 60 (0x3C)
T57F8 001:063.609 JLINK_ReadMemEx(0x08000194, 0x2 Bytes, Flags = 0x02000000)
T57F8 001:063.637    -- Read from C cache (2 bytes @ 0x08000194)
T57F8 001:063.679   Data:  D5 9E
T57F8 001:063.720 - 0.111ms returns 2 (0x2)
T57F8 001:063.753 JLINK_ReadMemEx(0x0800019A, 0x2 Bytes, Flags = 0x02000000)
T57F8 001:063.781    -- Read from C cache (2 bytes @ 0x0800019A)
T57F8 001:063.823   Data:  00 20
T57F8 001:063.865 - 0.112ms returns 2 (0x2)
T57F8 001:063.895 JLINK_ReadMemEx(0x0800019C, 0x3C Bytes, Flags = 0x02000000)
T57F8 001:063.923    -- Read from C cache (60 bytes @ 0x0800019C)
T57F8 001:063.965   Data:  06 48 80 47 06 48 00 47 FE E7 FE E7 FE E7 FE E7 ...
T57F8 001:064.006 - 0.111ms returns 60 (0x3C)
T57F8 001:064.036 JLINK_ReadMemEx(0x0800019C, 0x2 Bytes, Flags = 0x02000000)
T57F8 001:064.064    -- Read from C cache (2 bytes @ 0x0800019C)
T57F8 001:064.105   Data:  06 48
T57F8 001:064.147 - 0.111ms returns 2 (0x2)
T57F8 001:064.185 JLINK_ReadMemEx(0x0800019C, 0x3C Bytes, Flags = 0x02000000)
T57F8 001:064.213    -- Read from C cache (60 bytes @ 0x0800019C)
T57F8 001:064.256   Data:  06 48 80 47 06 48 00 47 FE E7 FE E7 FE E7 FE E7 ...
T57F8 001:064.297 - 0.112ms returns 60 (0x3C)
T57F8 001:064.327 JLINK_ReadMemEx(0x0800019C, 0x2 Bytes, Flags = 0x02000000)
T57F8 001:064.355    -- Read from C cache (2 bytes @ 0x0800019C)
T57F8 001:064.397   Data:  06 48
T57F8 001:064.439 - 0.111ms returns 2 (0x2)
T57F8 001:064.468 JLINK_ReadMemEx(0x0800019E, 0x2 Bytes, Flags = 0x02000000)
T57F8 001:064.496    -- Read from C cache (2 bytes @ 0x0800019E)
T57F8 001:064.538   Data:  80 47
T57F8 001:064.580 - 0.111ms returns 2 (0x2)
T57F8 001:064.614 JLINK_ReadMemEx(0x0800019E, 0x2 Bytes, Flags = 0x02000000)
T57F8 001:064.642    -- Read from C cache (2 bytes @ 0x0800019E)
T57F8 001:064.684   Data:  80 47
T57F8 001:064.726 - 0.111ms returns 2 (0x2)
T57F8 001:064.755 JLINK_ReadMemEx(0x080001A0, 0x3C Bytes, Flags = 0x02000000)
T57F8 001:064.783    -- Read from C cache (60 bytes @ 0x080001A0)
T57F8 001:064.825   Data:  06 48 00 47 FE E7 FE E7 FE E7 FE E7 FE E7 FE E7 ...
T57F8 001:064.867 - 0.111ms returns 60 (0x3C)
T57F8 001:064.896 JLINK_ReadMemEx(0x080001A0, 0x2 Bytes, Flags = 0x02000000)
T57F8 001:064.924    -- Read from C cache (2 bytes @ 0x080001A0)
T57F8 001:064.966   Data:  06 48
T57F8 001:065.007 - 0.111ms returns 2 (0x2)
T57F8 001:065.039 JLINK_ReadMemEx(0x080001A0, 0x3C Bytes, Flags = 0x02000000)
T57F8 001:065.067    -- Read from C cache (60 bytes @ 0x080001A0)
T57F8 001:065.109   Data:  06 48 00 47 FE E7 FE E7 FE E7 FE E7 FE E7 FE E7 ...
T57F8 001:065.151 - 0.111ms returns 60 (0x3C)
T57F8 001:065.180 JLINK_ReadMemEx(0x080001A0, 0x2 Bytes, Flags = 0x02000000)
T57F8 001:065.208    -- Read from C cache (2 bytes @ 0x080001A0)
T57F8 001:065.250   Data:  06 48
T57F8 001:065.291 - 0.111ms returns 2 (0x2)
T57F8 001:065.321 JLINK_ReadMemEx(0x080001A2, 0x2 Bytes, Flags = 0x02000000)
T57F8 001:065.349    -- Read from C cache (2 bytes @ 0x080001A2)
T57F8 001:065.391   Data:  00 47
T57F8 001:065.448 - 0.127ms returns 2 (0x2)
T57F8 003:616.823 JLINK_HasError()
T57F8 003:616.875 JLINK_ReadReg(R0)
T57F8 003:617.209 - 0.333ms returns 0x00000000
T57F8 003:617.252 JLINK_ReadReg(R1)
T57F8 003:617.283 - 0.030ms returns 0x00000000
T57F8 003:617.313 JLINK_ReadReg(R2)
T57F8 003:617.343 - 0.029ms returns 0x00000000
T57F8 003:617.374 JLINK_ReadReg(R3)
T57F8 003:617.403 - 0.029ms returns 0x00000000
T57F8 003:617.434 JLINK_ReadReg(R4)
T57F8 003:617.463 - 0.029ms returns 0x00000000
T57F8 003:617.498 JLINK_ReadReg(R5)
T57F8 003:617.540 - 0.042ms returns 0x00000000
T57F8 003:617.583 JLINK_ReadReg(R6)
T57F8 003:617.624 - 0.040ms returns 0x00000000
T57F8 003:617.666 JLINK_ReadReg(R7)
T57F8 003:617.707 - 0.040ms returns 0x00000000
T57F8 003:617.765 JLINK_ReadReg(R8)
T57F8 003:617.807 - 0.058ms returns 0x00000000
T57F8 003:617.850 JLINK_ReadReg(R9)
T57F8 003:617.891 - 0.040ms returns 0x00000000
T57F8 003:617.933 JLINK_ReadReg(R10)
T57F8 003:617.979 - 0.045ms returns 0x00000000
T57F8 003:618.022 JLINK_ReadReg(R11)
T57F8 003:618.063 - 0.040ms returns 0x00000000
T57F8 003:618.105 JLINK_ReadReg(R12)
T57F8 003:618.146 - 0.040ms returns 0x00000000
T57F8 003:618.189 JLINK_ReadReg(R13 (SP))
T57F8 003:618.230 - 0.040ms returns 0x20001078
T57F8 003:618.272 JLINK_ReadReg(R14)
T57F8 003:618.313 - 0.040ms returns 0xFFFFFFFF
T57F8 003:618.356 JLINK_ReadReg(R15 (PC))
T57F8 003:618.397 - 0.041ms returns 0x0800019C
T57F8 003:618.440 JLINK_ReadReg(XPSR)
T57F8 003:618.480 - 0.040ms returns 0x01000000
T57F8 003:618.523 JLINK_ReadReg(MSP)
T57F8 003:618.564 - 0.040ms returns 0x20001078
T57F8 003:618.606 JLINK_ReadReg(PSP)
T57F8 003:618.648 - 0.040ms returns 0x00000000
T57F8 003:618.678 JLINK_ReadReg(CFBP)
T57F8 003:618.702 - 0.023ms returns 0x00000000
T57F8 003:618.727 JLINK_ReadReg(FPSCR)
T57F8 003:621.736 - 3.008ms returns 0x00000000
T57F8 003:621.770 JLINK_ReadReg(FPS0)
T57F8 003:621.796 - 0.026ms returns 0x00000000
T57F8 003:621.824 JLINK_ReadReg(FPS1)
T57F8 003:621.850 - 0.025ms returns 0x00000000
T57F8 003:621.875 JLINK_ReadReg(FPS2)
T57F8 003:621.898 - 0.023ms returns 0x00000000
T57F8 003:621.924 JLINK_ReadReg(FPS3)
T57F8 003:621.947 - 0.023ms returns 0x00000000
T57F8 003:621.972 JLINK_ReadReg(FPS4)
T57F8 003:621.996 - 0.023ms returns 0x00000000
T57F8 003:622.020 JLINK_ReadReg(FPS5)
T57F8 003:622.045 - 0.024ms returns 0x00000000
T57F8 003:622.069 JLINK_ReadReg(FPS6)
T57F8 003:622.094 - 0.024ms returns 0x00000000
T57F8 003:622.118 JLINK_ReadReg(FPS7)
T57F8 003:622.142 - 0.023ms returns 0x00000000
T57F8 003:622.166 JLINK_ReadReg(FPS8)
T57F8 003:622.190 - 0.023ms returns 0x00000000
T57F8 003:622.215 JLINK_ReadReg(FPS9)
T57F8 003:622.238 - 0.023ms returns 0x00000000
T57F8 003:622.265 JLINK_ReadReg(FPS10)
T57F8 003:622.289 - 0.023ms returns 0x00000000
T57F8 003:622.316 JLINK_ReadReg(FPS11)
T57F8 003:622.339 - 0.023ms returns 0x00000000
T57F8 003:622.364 JLINK_ReadReg(FPS12)
T57F8 003:622.388 - 0.023ms returns 0x00000000
T57F8 003:622.412 JLINK_ReadReg(FPS13)
T57F8 003:622.436 - 0.023ms returns 0x00000000
T57F8 003:622.461 JLINK_ReadReg(FPS14)
T57F8 003:622.484 - 0.023ms returns 0x00000000
T57F8 003:622.509 JLINK_ReadReg(FPS15)
T57F8 003:622.533 - 0.023ms returns 0x00000000
T57F8 003:622.557 JLINK_ReadReg(FPS16)
T57F8 003:622.581 - 0.023ms returns 0x00000000
T57F8 003:622.606 JLINK_ReadReg(FPS17)
T57F8 003:622.629 - 0.023ms returns 0x00000000
T57F8 003:622.654 JLINK_ReadReg(FPS18)
T57F8 003:622.678 - 0.023ms returns 0x00000000
T57F8 003:622.702 JLINK_ReadReg(FPS19)
T57F8 003:622.726 - 0.023ms returns 0x00000000
T57F8 003:622.751 JLINK_ReadReg(FPS20)
T57F8 003:622.774 - 0.023ms returns 0x00000000
T57F8 003:622.799 JLINK_ReadReg(FPS21)
T57F8 003:622.823 - 0.023ms returns 0x00000000
T57F8 003:622.847 JLINK_ReadReg(FPS22)
T57F8 003:622.871 - 0.023ms returns 0x00000000
T57F8 003:622.896 JLINK_ReadReg(FPS23)
T57F8 003:622.919 - 0.023ms returns 0x00000000
T57F8 003:622.944 JLINK_ReadReg(FPS24)
T57F8 003:622.967 - 0.023ms returns 0x00000000
T57F8 003:622.992 JLINK_ReadReg(FPS25)
T57F8 003:623.016 - 0.023ms returns 0x00000000
T57F8 003:623.040 JLINK_ReadReg(FPS26)
T57F8 003:623.064 - 0.023ms returns 0x00000000
T57F8 003:623.089 JLINK_ReadReg(FPS27)
T57F8 003:623.112 - 0.023ms returns 0x00000000
T57F8 003:623.137 JLINK_ReadReg(FPS28)
T57F8 003:623.160 - 0.023ms returns 0x00000000
T57F8 003:623.185 JLINK_ReadReg(FPS29)
T57F8 003:623.209 - 0.023ms returns 0x00000000
T57F8 003:623.233 JLINK_ReadReg(FPS30)
T57F8 003:623.257 - 0.023ms returns 0x00000000
T57F8 003:623.281 JLINK_ReadReg(FPS31)
T57F8 003:623.305 - 0.023ms returns 0x00000000
T57F8 003:659.533 JLINK_ReadMemEx(0x20000008, 0x4 Bytes, Flags = 0x02000000)
T57F8 003:659.593   CPU_ReadMem(64 bytes @ 0x20000000)
T57F8 003:660.201    -- Updating C cache (64 bytes @ 0x20000000)
T57F8 003:660.254    -- Read from C cache (4 bytes @ 0x20000008)
T57F8 003:660.299   Data:  00 00 00 00
T57F8 003:660.343 - 0.810ms returns 4 (0x4)
T57F8 003:660.594 JLINK_ReadMemEx(0x20000008, 0x4 Bytes, Flags = 0x02000000)
T57F8 003:660.628    -- Read from C cache (4 bytes @ 0x20000008)
T57F8 003:660.664   Data:  00 00 00 00
T57F8 003:660.703 - 0.109ms returns 4 (0x4)
T57F8 003:660.745 JLINK_ReadMemEx(0x20000008, 0x4 Bytes, Flags = 0x02000000)
T57F8 003:660.771    -- Read from C cache (4 bytes @ 0x20000008)
T57F8 003:660.806   Data:  00 00 00 00
T57F8 003:660.841 - 0.096ms returns 4 (0x4)
T57F8 003:669.331 JLINK_ReadMemEx(0x20000128, 0x4 Bytes, Flags = 0x02000000)
T57F8 003:669.387   CPU_ReadMem(64 bytes @ 0x20000100)
T57F8 003:670.071    -- Updating C cache (64 bytes @ 0x20000100)
T57F8 003:670.115    -- Read from C cache (4 bytes @ 0x20000128)
T57F8 003:670.151   Data:  02 00 00 00
T57F8 003:670.188 - 0.857ms returns 4 (0x4)
T57F8 003:670.351 JLINK_ReadMemEx(0x20000128, 0x4 Bytes, Flags = 0x02000000)
T57F8 003:670.380    -- Read from C cache (4 bytes @ 0x20000128)
T57F8 003:670.416   Data:  02 00 00 00
T57F8 003:670.451 - 0.100ms returns 4 (0x4)
T57F8 003:670.542 JLINK_ReadMemEx(0x20000128, 0x4 Bytes, Flags = 0x02000000)
T57F8 003:670.568    -- Read from C cache (4 bytes @ 0x20000128)
T57F8 003:670.604   Data:  02 00 00 00
T57F8 003:670.640 - 0.098ms returns 4 (0x4)
T57F8 003:678.764 JLINK_ReadMemEx(0x2000012C, 0x4 Bytes, Flags = 0x02000000)
T57F8 003:678.816    -- Read from C cache (4 bytes @ 0x2000012C)
T57F8 003:678.853   Data:  00 00 00 00
T57F8 003:678.889 - 0.125ms returns 4 (0x4)
T57F8 003:679.036 JLINK_ReadMemEx(0x2000012C, 0x4 Bytes, Flags = 0x02000000)
T57F8 003:679.062    -- Read from C cache (4 bytes @ 0x2000012C)
T57F8 003:679.097   Data:  00 00 00 00
T57F8 003:679.133 - 0.097ms returns 4 (0x4)
T57F8 003:679.172 JLINK_ReadMemEx(0x2000012C, 0x4 Bytes, Flags = 0x02000000)
T57F8 003:679.197    -- Read from C cache (4 bytes @ 0x2000012C)
T57F8 003:679.232   Data:  00 00 00 00
T57F8 003:679.267 - 0.094ms returns 4 (0x4)
T57F8 003:689.183 JLINK_ReadMemEx(0x20000130, 0x4 Bytes, Flags = 0x02000000)
T57F8 003:689.238    -- Read from C cache (4 bytes @ 0x20000130)
T57F8 003:689.275   Data:  00 00 00 00
T57F8 003:689.312 - 0.129ms returns 4 (0x4)
T57F8 003:689.455 JLINK_ReadMemEx(0x20000130, 0x4 Bytes, Flags = 0x02000000)
T57F8 003:689.482    -- Read from C cache (4 bytes @ 0x20000130)
T57F8 003:689.517   Data:  00 00 00 00
T57F8 003:689.553 - 0.098ms returns 4 (0x4)
T57F8 003:689.604 JLINK_ReadMemEx(0x20000130, 0x4 Bytes, Flags = 0x02000000)
T57F8 003:689.632    -- Read from C cache (4 bytes @ 0x20000130)
T57F8 003:689.667   Data:  00 00 00 00
T57F8 003:689.702 - 0.098ms returns 4 (0x4)
T57F8 003:699.005 JLINK_ReadMemEx(0x20000140, 0x2 Bytes, Flags = 0x02000000)
T57F8 003:699.066   CPU_ReadMem(64 bytes @ 0x20000140)
T57F8 003:699.697    -- Updating C cache (64 bytes @ 0x20000140)
T57F8 003:699.740    -- Read from C cache (2 bytes @ 0x20000140)
T57F8 003:699.777   Data:  00 00
T57F8 003:699.813 - 0.808ms returns 2 (0x2)
T57F8 003:699.963 JLINK_ReadMemEx(0x20000140, 0x2 Bytes, Flags = 0x02000000)
T57F8 003:699.991    -- Read from C cache (2 bytes @ 0x20000140)
T57F8 003:700.027   Data:  00 00
T57F8 003:700.062 - 0.099ms returns 2 (0x2)
T57F8 003:700.102 JLINK_ReadMemEx(0x20000140, 0x2 Bytes, Flags = 0x02000000)
T57F8 003:700.127    -- Read from C cache (2 bytes @ 0x20000140)
T57F8 003:700.165   Data:  00 00
T57F8 003:700.200 - 0.098ms returns 2 (0x2)
T57F8 003:730.950 JLINK_ReadMemEx(0x00000000, 0x4 Bytes, Flags = 0x02000000)
T57F8 003:731.006   CPU_ReadMem(4 bytes @ 0x40023844)
T57F8 003:731.335   CPU_ReadMem(64 bytes @ 0x08000000)
T57F8 003:731.936    -- Updating C cache (64 bytes @ 0x08000000)
T57F8 003:731.988    -- Read from C cache (4 bytes @ 0x08000000)
T57F8 003:732.033   Data:  78 10 00 20
T57F8 003:732.076 - 1.127ms returns 4 (0x4)
T57F8 003:732.322 JLINK_ReadMemEx(0x00000000, 0x4 Bytes, Flags = 0x02000000)
T57F8 003:732.354    -- Read from C cache (4 bytes @ 0x08000000)
T57F8 003:732.398   Data:  78 10 00 20
T57F8 003:732.442 - 0.120ms returns 4 (0x4)
T57F8 003:732.489 JLINK_ReadMemEx(0x00000000, 0x4 Bytes, Flags = 0x02000000)
T57F8 003:732.528    -- Read from C cache (4 bytes @ 0x08000000)
T57F8 003:732.571   Data:  78 10 00 20
T57F8 003:732.614 - 0.125ms returns 4 (0x4)
T57F8 003:755.856 JLINK_ReadMemEx(0x2000012C, 0x4 Bytes, Flags = 0x02000000)
T57F8 003:755.909    -- Read from C cache (4 bytes @ 0x2000012C)
T57F8 003:755.946   Data:  00 00 00 00
T57F8 003:755.983 - 0.127ms returns 4 (0x4)
T57F8 003:756.142 JLINK_ReadMemEx(0x2000012C, 0x4 Bytes, Flags = 0x02000000)
T57F8 003:756.169    -- Read from C cache (4 bytes @ 0x2000012C)
T57F8 003:756.204   Data:  00 00 00 00
T57F8 003:756.240 - 0.098ms returns 4 (0x4)
T57F8 003:756.279 JLINK_ReadMemEx(0x2000012C, 0x4 Bytes, Flags = 0x02000000)
T57F8 003:756.304    -- Read from C cache (4 bytes @ 0x2000012C)
T57F8 003:756.347   Data:  00 00 00 00
T57F8 003:756.382 - 0.103ms returns 4 (0x4)
T57F8 003:768.321 JLINK_ReadMemEx(0x20000130, 0x4 Bytes, Flags = 0x02000000)
T57F8 003:768.374    -- Read from C cache (4 bytes @ 0x20000130)
T57F8 003:768.417   Data:  00 00 00 00
T57F8 003:768.454 - 0.132ms returns 4 (0x4)
T57F8 003:768.597 JLINK_ReadMemEx(0x20000130, 0x4 Bytes, Flags = 0x02000000)
T57F8 003:768.623    -- Read from C cache (4 bytes @ 0x20000130)
T57F8 003:768.659   Data:  00 00 00 00
T57F8 003:768.695 - 0.098ms returns 4 (0x4)
T57F8 003:768.735 JLINK_ReadMemEx(0x20000130, 0x4 Bytes, Flags = 0x02000000)
T57F8 003:768.760    -- Read from C cache (4 bytes @ 0x20000130)
T57F8 003:768.796   Data:  00 00 00 00
T57F8 003:768.831 - 0.095ms returns 4 (0x4)
T57F8 003:781.215 JLINK_ReadMemEx(0x20000128, 0x4 Bytes, Flags = 0x02000000)
T57F8 003:781.262    -- Read from C cache (4 bytes @ 0x20000128)
T57F8 003:781.300   Data:  02 00 00 00
T57F8 003:781.336 - 0.121ms returns 4 (0x4)
T57F8 003:781.483 JLINK_ReadMemEx(0x20000128, 0x4 Bytes, Flags = 0x02000000)
T57F8 003:781.510    -- Read from C cache (4 bytes @ 0x20000128)
T57F8 003:781.545   Data:  02 00 00 00
T57F8 003:781.581 - 0.098ms returns 4 (0x4)
T57F8 003:781.646 JLINK_ReadMemEx(0x20000128, 0x4 Bytes, Flags = 0x02000000)
T57F8 003:781.671    -- Read from C cache (4 bytes @ 0x20000128)
T57F8 003:781.710   Data:  02 00 00 00
T57F8 003:781.745 - 0.100ms returns 4 (0x4)
T57F8 003:808.936 JLINK_ReadMemEx(0x200000EC, 0x4 Bytes, Flags = 0x02000000)
T57F8 003:808.998   CPU_ReadMem(64 bytes @ 0x200000C0)
T57F8 003:809.599    -- Updating C cache (64 bytes @ 0x200000C0)
T57F8 003:809.655    -- Read from C cache (4 bytes @ 0x200000EC)
T57F8 003:809.702   Data:  00 00 00 00
T57F8 003:809.746 - 0.810ms returns 4 (0x4)
T57F8 003:809.982 JLINK_ReadMemEx(0x200000EC, 0x4 Bytes, Flags = 0x02000000)
T57F8 003:810.030    -- Read from C cache (4 bytes @ 0x200000EC)
T57F8 003:810.094   Data:  00 00 00 00
T57F8 003:810.154 - 0.172ms returns 4 (0x4)
T57F8 003:810.220 JLINK_ReadMemEx(0x200000EC, 0x4 Bytes, Flags = 0x02000000)
T57F8 003:810.264    -- Read from C cache (4 bytes @ 0x200000EC)
T57F8 003:810.324   Data:  00 00 00 00
T57F8 003:810.384 - 0.163ms returns 4 (0x4)
T57F8 003:824.375 JLINK_ReadMemEx(0x00000000, 0x4 Bytes, Flags = 0x02000000)
T57F8 003:824.426    -- Read from C cache (4 bytes @ 0x08000000)
T57F8 003:824.462   Data:  78 10 00 20
T57F8 003:824.499 - 0.124ms returns 4 (0x4)
T57F8 003:826.982 JLINK_ReadMemEx(0x00000000, 0x4 Bytes, Flags = 0x02000000)
T57F8 003:827.015    -- Read from C cache (4 bytes @ 0x08000000)
T57F8 003:827.051   Data:  78 10 00 20
T57F8 003:827.087 - 0.104ms returns 4 (0x4)
T57F8 003:827.126 JLINK_ReadMemEx(0x00000000, 0x4 Bytes, Flags = 0x02000000)
T57F8 003:827.151    -- Read from C cache (4 bytes @ 0x08000000)
T57F8 003:827.186   Data:  78 10 00 20
T57F8 003:827.223 - 0.097ms returns 4 (0x4)
T57F8 003:828.974 JLINK_ReadMemEx(0x20000010, 0x4 Bytes, Flags = 0x02000000)
T57F8 003:829.008    -- Read from C cache (4 bytes @ 0x20000010)
T57F8 003:829.044   Data:  00 00 00 00
T57F8 003:829.080 - 0.106ms returns 4 (0x4)
T57F8 003:829.214 JLINK_ReadMemEx(0x20000010, 0x4 Bytes, Flags = 0x02000000)
T57F8 003:829.241    -- Read from C cache (4 bytes @ 0x20000010)
T57F8 003:829.276   Data:  00 00 00 00
T57F8 003:829.311 - 0.097ms returns 4 (0x4)
T57F8 003:829.344 JLINK_ReadMemEx(0x20000010, 0x4 Bytes, Flags = 0x02000000)
T57F8 003:829.369    -- Read from C cache (4 bytes @ 0x20000010)
T57F8 003:829.404   Data:  00 00 00 00
T57F8 003:829.439 - 0.095ms returns 4 (0x4)
T57F8 003:831.203 JLINK_ReadMemEx(0x20000014, 0x4 Bytes, Flags = 0x02000000)
T57F8 003:831.238    -- Read from C cache (4 bytes @ 0x20000014)
T57F8 003:831.273   Data:  00 00 00 00
T57F8 003:831.309 - 0.105ms returns 4 (0x4)
T57F8 003:831.441 JLINK_ReadMemEx(0x20000014, 0x4 Bytes, Flags = 0x02000000)
T57F8 003:831.467    -- Read from C cache (4 bytes @ 0x20000014)
T57F8 003:831.502   Data:  00 00 00 00
T57F8 003:831.537 - 0.097ms returns 4 (0x4)
T57F8 003:831.571 JLINK_ReadMemEx(0x20000014, 0x4 Bytes, Flags = 0x02000000)
T57F8 003:831.596    -- Read from C cache (4 bytes @ 0x20000014)
T57F8 003:831.630   Data:  00 00 00 00
T57F8 003:831.666 - 0.095ms returns 4 (0x4)
T57F8 003:833.424 JLINK_ReadMemEx(0x20000018, 0x4 Bytes, Flags = 0x02000000)
T57F8 003:833.458    -- Read from C cache (4 bytes @ 0x20000018)
T57F8 003:833.494   Data:  00 00 00 00
T57F8 003:833.529 - 0.105ms returns 4 (0x4)
T57F8 003:833.671 JLINK_ReadMemEx(0x20000018, 0x4 Bytes, Flags = 0x02000000)
T57F8 003:833.698    -- Read from C cache (4 bytes @ 0x20000018)
T57F8 003:833.733   Data:  00 00 00 00
T57F8 003:833.768 - 0.097ms returns 4 (0x4)
T57F8 003:833.801 JLINK_ReadMemEx(0x20000018, 0x4 Bytes, Flags = 0x02000000)
T57F8 003:833.826    -- Read from C cache (4 bytes @ 0x20000018)
T57F8 003:833.861   Data:  00 00 00 00
T57F8 003:833.896 - 0.095ms returns 4 (0x4)
T57F8 003:835.451 JLINK_ReadMemEx(0x00000000, 0x4 Bytes, Flags = 0x02000000)
T57F8 003:835.483    -- Read from C cache (4 bytes @ 0x08000000)
T57F8 003:835.519   Data:  78 10 00 20
T57F8 003:835.554 - 0.103ms returns 4 (0x4)
T57F8 003:835.692 JLINK_ReadMemEx(0x00000000, 0x4 Bytes, Flags = 0x02000000)
T57F8 003:835.718    -- Read from C cache (4 bytes @ 0x08000000)
T57F8 003:835.759   Data:  78 10 00 20
T57F8 003:835.794 - 0.101ms returns 4 (0x4)
T57F8 003:835.826 JLINK_ReadMemEx(0x00000000, 0x4 Bytes, Flags = 0x02000000)
T57F8 003:835.851    -- Read from C cache (4 bytes @ 0x08000000)
T57F8 003:835.885   Data:  78 10 00 20
T57F8 003:835.920 - 0.094ms returns 4 (0x4)
T57F8 003:837.577 JLINK_ReadMemEx(0x20000128, 0x4 Bytes, Flags = 0x02000000)
T57F8 003:837.610    -- Read from C cache (4 bytes @ 0x20000128)
T57F8 003:837.646   Data:  02 00 00 00
T57F8 003:837.681 - 0.104ms returns 4 (0x4)
T57F8 003:837.859 JLINK_ReadMemEx(0x20000128, 0x4 Bytes, Flags = 0x02000000)
T57F8 003:837.892    -- Read from C cache (4 bytes @ 0x20000128)
T57F8 003:837.933   Data:  02 00 00 00
T57F8 003:837.973 - 0.114ms returns 4 (0x4)
T57F8 003:838.010 JLINK_ReadMemEx(0x20000128, 0x4 Bytes, Flags = 0x02000000)
T57F8 003:838.039    -- Read from C cache (4 bytes @ 0x20000128)
T57F8 003:838.080   Data:  02 00 00 00
T57F8 003:838.120 - 0.110ms returns 4 (0x4)
T39A8 003:898.710 JLINK_ReadMemEx(0x0800019C, 0x2 Bytes, Flags = 0x02000000)
T39A8 003:898.767    -- Read from C cache (2 bytes @ 0x0800019C)
T39A8 003:898.812   Data:  06 48
T39A8 003:898.856 - 0.147ms returns 2 (0x2)
T39A8 003:898.888 JLINK_HasError()
T39A8 003:898.924 JLINK_SetBPEx(Addr = 0x08009ED4, Type = 0xFFFFFFF2)
T39A8 003:898.957 - 0.034ms returns 0x00000001
T39A8 003:898.988 JLINK_HasError()
T39A8 003:899.019 JLINK_HasError()
T39A8 003:899.050 JLINK_Go()
T39A8 003:899.098   CPU_WriteMem(4 bytes @ 0xE0002000)
T39A8 003:899.545   CPU_ReadMem(4 bytes @ 0xE0001000)
T39A8 003:899.937   CPU_WriteMem(4 bytes @ 0xE0002008)
T39A8 003:899.991   CPU_WriteMem(4 bytes @ 0xE000200C)
T39A8 003:900.036   CPU_WriteMem(4 bytes @ 0xE0002010)
T39A8 003:900.079   CPU_WriteMem(4 bytes @ 0xE0002014)
T39A8 003:900.123   CPU_WriteMem(4 bytes @ 0xE0002018)
T39A8 003:900.166   CPU_WriteMem(4 bytes @ 0xE000201C)
T39A8 003:901.308   CPU_WriteMem(4 bytes @ 0xE0001004)
T39A8 003:902.098   Memory map 'after startup completion point' is active
T39A8 003:902.144 - 3.093ms
T39A8 004:002.636 JLINK_HasError()
T39A8 004:002.685 JLINK_IsHalted()
T39A8 004:004.667 - 1.981ms returns TRUE
T39A8 004:004.709 JLINK_HasError()
T39A8 004:004.741 JLINK_Halt()
T39A8 004:004.771 - 0.029ms returns 0x00
T39A8 004:004.802 JLINK_IsHalted()
T39A8 004:004.832 - 0.029ms returns TRUE
T39A8 004:004.863 JLINK_IsHalted()
T39A8 004:004.893 - 0.029ms returns TRUE
T39A8 004:004.923 JLINK_IsHalted()
T39A8 004:004.953 - 0.029ms returns TRUE
T39A8 004:004.984 JLINK_HasError()
T39A8 004:005.016 JLINK_ReadReg(R15 (PC))
T39A8 004:005.048 - 0.032ms returns 0x08009ED4
T39A8 004:005.079 JLINK_ReadReg(XPSR)
T39A8 004:005.109 - 0.030ms returns 0x61000000
T39A8 004:005.145 JLINK_HasError()
T39A8 004:005.176 JLINK_ClrBPEx(BPHandle = 0x00000001)
T39A8 004:005.206 - 0.030ms returns 0x00
T39A8 004:005.237 JLINK_HasError()
T39A8 004:005.268 JLINK_HasError()
T39A8 004:005.299 JLINK_ReadMemU32(0xE000ED30, 0x1 Items)
T39A8 004:005.338   CPU_ReadMem(4 bytes @ 0xE000ED30)
T39A8 004:005.686   Data:  02 00 00 00
T39A8 004:005.725 - 0.426ms returns 1 (0x1)
T39A8 004:005.752 JLINK_ReadMemU32(0xE0001028, 0x1 Items)
T39A8 004:005.779   CPU_ReadMem(4 bytes @ 0xE0001028)
T39A8 004:006.063   Data:  00 00 00 00
T39A8 004:006.115   Debug reg: DWT_FUNC[0]
T39A8 004:006.163 - 0.410ms returns 1 (0x1)
T39A8 004:006.196 JLINK_ReadMemU32(0xE0001038, 0x1 Items)
T39A8 004:006.231   CPU_ReadMem(4 bytes @ 0xE0001038)
T39A8 004:006.564   Data:  00 02 00 00
T39A8 004:006.617   Debug reg: DWT_FUNC[1]
T39A8 004:006.661 - 0.464ms returns 1 (0x1)
T39A8 004:006.695 JLINK_ReadMemU32(0xE0001048, 0x1 Items)
T39A8 004:006.729   CPU_ReadMem(4 bytes @ 0xE0001048)
T39A8 004:007.020   Data:  00 00 00 00
T39A8 004:007.067   Debug reg: DWT_FUNC[2]
T39A8 004:007.111 - 0.416ms returns 1 (0x1)
T39A8 004:007.143 JLINK_ReadMemU32(0xE0001058, 0x1 Items)
T39A8 004:007.178   CPU_ReadMem(4 bytes @ 0xE0001058)
T39A8 004:007.563   Data:  00 00 00 00
T39A8 004:007.614   Debug reg: DWT_FUNC[3]
T39A8 004:007.658 - 0.514ms returns 1 (0x1)
T39A8 004:007.720 JLINK_HasError()
T39A8 004:007.753 JLINK_ReadReg(R0)
T39A8 004:007.786 - 0.032ms returns 0x08009ED5
T39A8 004:007.819 JLINK_ReadReg(R1)
T39A8 004:007.850 - 0.030ms returns 0x20001078
T39A8 004:007.971 JLINK_ReadReg(R2)
T39A8 004:008.002 - 0.031ms returns 0x00000000
T39A8 004:008.033 JLINK_ReadReg(R3)
T39A8 004:008.062 - 0.029ms returns 0x0800918D
T39A8 004:008.093 JLINK_ReadReg(R4)
T39A8 004:008.123 - 0.029ms returns 0x0800A1C4
T39A8 004:008.154 JLINK_ReadReg(R5)
T39A8 004:008.183 - 0.029ms returns 0x0800A1C4
T39A8 004:008.215 JLINK_ReadReg(R6)
T39A8 004:008.259 - 0.044ms returns 0x00000000
T39A8 004:008.291 JLINK_ReadReg(R7)
T39A8 004:008.321 - 0.029ms returns 0x00000000
T39A8 004:008.348 JLINK_ReadReg(R8)
T39A8 004:008.372 - 0.024ms returns 0x00000000
T39A8 004:008.397 JLINK_ReadReg(R9)
T39A8 004:008.421 - 0.023ms returns 0x00000000
T39A8 004:008.446 JLINK_ReadReg(R10)
T39A8 004:008.470 - 0.024ms returns 0x00000000
T39A8 004:008.495 JLINK_ReadReg(R11)
T39A8 004:008.519 - 0.024ms returns 0x00000000
T39A8 004:008.544 JLINK_ReadReg(R12)
T39A8 004:008.568 - 0.023ms returns 0x00000000
T39A8 004:008.593 JLINK_ReadReg(R13 (SP))
T39A8 004:008.617 - 0.024ms returns 0x20001078
T39A8 004:008.642 JLINK_ReadReg(R14)
T39A8 004:008.666 - 0.024ms returns 0x08000441
T39A8 004:008.692 JLINK_ReadReg(R15 (PC))
T39A8 004:008.716 - 0.024ms returns 0x08009ED4
T39A8 004:008.741 JLINK_ReadReg(XPSR)
T39A8 004:008.765 - 0.024ms returns 0x61000000
T39A8 004:008.790 JLINK_ReadReg(MSP)
T39A8 004:008.814 - 0.023ms returns 0x20001078
T39A8 004:008.839 JLINK_ReadReg(PSP)
T39A8 004:008.863 - 0.023ms returns 0x00000000
T39A8 004:008.887 JLINK_ReadReg(CFBP)
T39A8 004:008.911 - 0.024ms returns 0x00000000
T39A8 004:008.937 JLINK_ReadReg(FPSCR)
T39A8 004:011.859 - 2.921ms returns 0x00000000
T39A8 004:011.895 JLINK_ReadReg(FPS0)
T39A8 004:011.926 - 0.031ms returns 0x00000000
T39A8 004:011.958 JLINK_ReadReg(FPS1)
T39A8 004:011.988 - 0.030ms returns 0x00000000
T39A8 004:012.019 JLINK_ReadReg(FPS2)
T39A8 004:012.049 - 0.030ms returns 0x00000000
T39A8 004:012.080 JLINK_ReadReg(FPS3)
T39A8 004:012.110 - 0.029ms returns 0x00000000
T39A8 004:012.141 JLINK_ReadReg(FPS4)
T39A8 004:012.171 - 0.029ms returns 0x00000000
T39A8 004:012.202 JLINK_ReadReg(FPS5)
T39A8 004:012.232 - 0.029ms returns 0x00000000
T39A8 004:012.265 JLINK_ReadReg(FPS6)
T39A8 004:012.296 - 0.030ms returns 0x00000000
T39A8 004:012.327 JLINK_ReadReg(FPS7)
T39A8 004:012.357 - 0.030ms returns 0x00000000
T39A8 004:012.388 JLINK_ReadReg(FPS8)
T39A8 004:012.418 - 0.030ms returns 0x00000000
T39A8 004:012.449 JLINK_ReadReg(FPS9)
T39A8 004:012.479 - 0.030ms returns 0x00000000
T39A8 004:012.511 JLINK_ReadReg(FPS10)
T39A8 004:012.541 - 0.030ms returns 0x00000000
T39A8 004:012.572 JLINK_ReadReg(FPS11)
T39A8 004:012.604 - 0.032ms returns 0x00000000
T39A8 004:012.635 JLINK_ReadReg(FPS12)
T39A8 004:012.665 - 0.030ms returns 0x00000000
T39A8 004:012.698 JLINK_ReadReg(FPS13)
T39A8 004:012.730 - 0.031ms returns 0x00000000
T39A8 004:012.761 JLINK_ReadReg(FPS14)
T39A8 004:012.791 - 0.029ms returns 0x00000000
T39A8 004:012.822 JLINK_ReadReg(FPS15)
T39A8 004:012.852 - 0.029ms returns 0x00000000
T39A8 004:012.883 JLINK_ReadReg(FPS16)
T39A8 004:012.913 - 0.029ms returns 0x00000000
T39A8 004:012.944 JLINK_ReadReg(FPS17)
T39A8 004:012.974 - 0.030ms returns 0x00000000
T39A8 004:013.005 JLINK_ReadReg(FPS18)
T39A8 004:013.035 - 0.029ms returns 0x00000000
T39A8 004:013.066 JLINK_ReadReg(FPS19)
T39A8 004:013.096 - 0.029ms returns 0x00000000
T39A8 004:013.127 JLINK_ReadReg(FPS20)
T39A8 004:013.157 - 0.029ms returns 0x00000000
T39A8 004:013.189 JLINK_ReadReg(FPS21)
T39A8 004:013.219 - 0.030ms returns 0x00000000
T39A8 004:013.250 JLINK_ReadReg(FPS22)
T39A8 004:013.280 - 0.029ms returns 0x00000000
T39A8 004:013.313 JLINK_ReadReg(FPS23)
T39A8 004:013.343 - 0.029ms returns 0x00000000
T39A8 004:013.372 JLINK_ReadReg(FPS24)
T39A8 004:013.396 - 0.024ms returns 0x00000000
T39A8 004:013.422 JLINK_ReadReg(FPS25)
T39A8 004:013.446 - 0.024ms returns 0x00000000
T39A8 004:013.471 JLINK_ReadReg(FPS26)
T39A8 004:013.500 - 0.029ms returns 0x00000000
T39A8 004:013.526 JLINK_ReadReg(FPS27)
T39A8 004:013.550 - 0.024ms returns 0x00000000
T39A8 004:013.575 JLINK_ReadReg(FPS28)
T39A8 004:013.600 - 0.024ms returns 0x00000000
T39A8 004:013.625 JLINK_ReadReg(FPS29)
T39A8 004:013.649 - 0.024ms returns 0x00000000
T39A8 004:013.674 JLINK_ReadReg(FPS30)
T39A8 004:013.699 - 0.024ms returns 0x00000000
T39A8 004:013.724 JLINK_ReadReg(FPS31)
T39A8 004:013.748 - 0.024ms returns 0x00000000
T57F8 004:014.162 JLINK_ReadMemEx(0xE000ED28, 0x4 Bytes, Flags = 0x02000000)
